
T48BC 000:227 SEGGER J-Link V6.44e Log File (0001ms, 0068ms total)
T48BC 000:227 DLL Compiled: Apr  5 2019 16:15:03 (0001ms, 0068ms total)
T48BC 000:227 Logging started @ 2025-05-13 16:09 (0001ms, 0068ms total)
T48BC 000:228 JLINK_SetWarnOutHandler(...) (0000ms, 0068ms total)
T48BC 000:228 JLINK_OpenEx(...)
Firmware: J-Link V9 compiled May  7 2021 16:26:12
Hardware: V9.20
S/N: 59800864
Feature(s): RDI, GDB, FlashDL, FlashBP, JFlash
TELNET listener socket opened on port 19021WEBSRV 
Starting webserver (0056ms, 0124ms total)
T48BC 000:228 WEBSRV Webserver running on local port 19080 (0056ms, 0124ms total)
T48BC 000:228   returns O.K. (0056ms, 0124ms total)
T48BC 000:284 JLINK_SetErrorOutHandler(...) (0000ms, 0124ms total)
T48BC 000:284 JLINK_ExecCommand("ProjectFile = "D:\M14D\PersonalProject\PicoMCU\Foreign\Nordic\NRF51822_Proj\NRF51_I2C_3\JLinkSettings.ini"", ...). Ref file found at: C:\Keil_v5\ARM\Segger\JLinkDevices.ref (0000ms, 0124ms total)
T48BC 000:284 REF file references invalid XML file: C:\Program Files\SEGGER\JLink_V794i\JLinkDevices.xml (0002ms, 0126ms total)
T48BC 000:284   returns 0x00 (0002ms, 0126ms total)
T48BC 000:286 JLINK_ExecCommand("Device = nRF51822_xxAC", ...). Device "NRF51822_XXAC" selected.  returns 0x00 (0001ms, 0127ms total)
T48BC 000:287 JLINK_ExecCommand("DisableConnectionTimeout", ...).   returns 0x01 (0000ms, 0127ms total)
T48BC 000:287 JLINK_GetHardwareVersion()  returns 0x16760 (0000ms, 0127ms total)
T48BC 000:287 JLINK_GetDLLVersion()  returns 64405 (0000ms, 0127ms total)
T48BC 000:287 JLINK_GetFirmwareString(...) (0000ms, 0127ms total)
T48BC 000:287 JLINK_GetDLLVersion()  returns 64405 (0000ms, 0127ms total)
T48BC 000:287 JLINK_GetCompileDateTime() (0001ms, 0128ms total)
T48BC 000:288 JLINK_GetFirmwareString(...) (0000ms, 0128ms total)
T48BC 000:288 JLINK_GetHardwareVersion()  returns 0x16760 (0000ms, 0128ms total)
T48BC 000:288 JLINK_TIF_Select(JLINKARM_TIF_SWD)  returns 0x00 (0001ms, 0129ms total)
T48BC 000:289 JLINK_SetSpeed(5000) (0001ms, 0130ms total)
T48BC 000:290 JLINK_GetId() >0x10B TIF>Found SW-DP with ID 0x0BB11477 >0x0D TIF> >0x28 TIF> >0x0D TIF> >0x28 TIF> >0x0D TIF> >0x28 TIF> >0x0D TIF> >0x28 TIF> >0x35 TIF> >0x0D TIF> >0x28 TIF>Scanning AP map to find all available APs >0x0D TIF> >0x28 TIF> >0x35 TIF> >0x35 TIF> >0x0D TIF> >0x28 TIF> >0x35 TIF> >0x35 TIF>AP[1]: Stopped AP scan as end of AP map has been reachedAP[0]: AHB-AP (IDR: 0x04770021)Iterating through AP map to find AHB-AP to use >0x42 TIF> >0x28 TIF> >0x0D TIF> >0x28 TIF> >0x35 TIF>
 >0x35 TIF> >0x42 TIF> >0x28 TIF> >0x0D TIF> >0x28 TIF> >0x0D TIF> >0x28 TIF> >0x35 TIF> >0x35 TIF>AP[0]: Core foundAP[0]: AHB-AP ROM base: 0xF0000000 >0x0D TIF> >0x28 TIF> >0x0D TIF> >0x28 TIF> >0x0D TIF> >0x28 TIF> >0x35 TIF> >0x35 TIF>CPUID register: 0x410CC200. Implementer code: 0x41 (ARM)Found Cortex-M0 r0p0, Little endian. -- Max. mem block: 0x00010DE8 -- CPU_ReadMem(4 bytes @ 0xE000EDF0) -- CPU_WriteMem(4 bytes @ 0xE000EDF0) -- CPU_ReadMem(4 bytes @ 0xE0002000)
FPUnit: 4 code (BP) slots and 0 literal slots -- CPU_ReadMem(4 bytes @ 0xE000EDFC) -- CPU_WriteMem(4 bytes @ 0xE000EDFC) -- CPU_ReadMem(4 bytes @ 0xE0001000) -- CPU_WriteMem(4 bytes @ 0xE0001000)CoreSight components:ROMTbl[0] @ F0000000 -- CPU_ReadMem(16 bytes @ 0xF0000000) -- CPU_ReadMem(16 bytes @ 0xE00FFFF0) -- CPU_ReadMem(16 bytes @ 0xE00FFFE0)ROMTbl[0][0]: E00FF000, CID: B105100D, PID: 000BB471 ROM TableROMTbl[1] @ E00FF000 -- CPU_ReadMem(16 bytes @ 0xE00FF000) -- CPU_ReadMem(16 bytes @ 0xE000EFF0)
 -- CPU_ReadMem(16 bytes @ 0xE000EFE0)ROMTbl[1][0]: E000E000, CID: B105E00D, PID: 000BB008 SCS -- CPU_ReadMem(16 bytes @ 0xE0001FF0) -- CPU_ReadMem(16 bytes @ 0xE0001FE0)ROMTbl[1][1]: E0001000, CID: B105E00D, PID: 000BB00A DWT -- CPU_ReadMem(16 bytes @ 0xE0002FF0) -- CPU_ReadMem(16 bytes @ 0xE0002FE0)ROMTbl[1][2]: E0002000, CID: B105E00D, PID: 000BB00B FPB -- CPU_ReadMem(16 bytes @ 0xF0002FF0) -- CPU_ReadMem(16 bytes @ 0xF0002FE0)ROMTbl[0][1]: F0002000, CID: B105900D, PID: 000BB9A3 ???
 -- CPU_ReadMem(4 bytes @ 0x10001004) >0x35 TIF>  returns 0x0BB11477 (0206ms, 0336ms total)
T48BC 000:496 JLINK_GetDLLVersion()  returns 64405 (0000ms, 0336ms total)
T48BC 000:496 JLINK_CORE_GetFound()  returns 0x60000FF (0000ms, 0336ms total)
T48BC 000:496 JLINK_GetDebugInfo(0x100 = JLINKARM_ROM_TABLE_ADDR_INDEX) -- Value=0xF0000000  returns 0x00 (0000ms, 0336ms total)
T48BC 000:496 JLINK_ReadMem (0xF0000000, 0x0020 Bytes, ...) -- CPU_ReadMem(32 bytes @ 0xF0000000) - Data: 03 F0 0F F0 03 20 00 00 00 00 00 00 00 00 00 00 ...  returns 0x00 (0001ms, 0337ms total)
T48BC 000:497 JLINK_ReadMem (0xE00FFFF0, 0x0010 Bytes, ...) -- CPU_ReadMem(16 bytes @ 0xE00FFFF0) - Data: 0D 00 00 00 10 00 00 00 05 00 00 00 B1 00 00 00  returns 0x00 (0001ms, 0338ms total)
T48BC 000:498 JLINK_ReadMem (0xE00FFFD0, 0x0020 Bytes, ...) -- CPU_ReadMem(32 bytes @ 0xE00FFFD0) - Data: 04 00 00 00 00 00 00 00 00 00 00 00 00 00 00 00 ...  returns 0x00 (0000ms, 0338ms total)
T48BC 000:498 JLINK_ReadMem (0xE00FF000, 0x0020 Bytes, ...) -- CPU_ReadMem(32 bytes @ 0xE00FF000) - Data: 03 F0 F0 FF 03 20 F0 FF 03 30 F0 FF 00 00 00 00 ...  returns 0x00 (0001ms, 0339ms total)
T48BC 000:499 JLINK_ReadMem (0xE000EFF0, 0x0010 Bytes, ...) -- CPU_ReadMem(16 bytes @ 0xE000EFF0) - Data: 0D 00 00 00 E0 00 00 00 05 00 00 00 B1 00 00 00  returns 0x00 (0001ms, 0340ms total)
T48BC 000:500 JLINK_ReadMem (0xE000EFD0, 0x0020 Bytes, ...) -- CPU_ReadMem(32 bytes @ 0xE000EFD0) - Data: 04 00 00 00 00 00 00 00 00 00 00 00 00 00 00 00 ...  returns 0x00 (0000ms, 0340ms total)
T48BC 000:500 JLINK_ReadMem (0xE0001FF0, 0x0010 Bytes, ...) -- CPU_ReadMem(16 bytes @ 0xE0001FF0) - Data: 0D 00 00 00 E0 00 00 00 05 00 00 00 B1 00 00 00  returns 0x00 (0001ms, 0341ms total)
T48BC 000:501 JLINK_ReadMem (0xE0001FD0, 0x0020 Bytes, ...) -- CPU_ReadMem(32 bytes @ 0xE0001FD0) - Data: 04 00 00 00 00 00 00 00 00 00 00 00 00 00 00 00 ...  returns 0x00 (0000ms, 0341ms total)
T48BC 000:501 JLINK_ReadMem (0xE0002FF0, 0x0010 Bytes, ...) -- CPU_ReadMem(16 bytes @ 0xE0002FF0) - Data: 0D 00 00 00 E0 00 00 00 05 00 00 00 B1 00 00 00  returns 0x00 (0001ms, 0342ms total)
T48BC 000:502 JLINK_ReadMem (0xE0002FD0, 0x0020 Bytes, ...) -- CPU_ReadMem(32 bytes @ 0xE0002FD0) - Data: 04 00 00 00 00 00 00 00 00 00 00 00 00 00 00 00 ...  returns 0x00 (0001ms, 0343ms total)
T48BC 000:503 JLINK_ReadMem (0xF0002FF0, 0x0010 Bytes, ...) -- CPU_ReadMem(16 bytes @ 0xF0002FF0) - Data: 0D 00 00 00 90 00 00 00 05 00 00 00 B1 00 00 00  returns 0x00 (0000ms, 0343ms total)
T48BC 000:503 JLINK_ReadMem (0xF0002FD0, 0x0020 Bytes, ...) -- CPU_ReadMem(32 bytes @ 0xF0002FD0) - Data: 04 00 00 00 00 00 00 00 00 00 00 00 00 00 00 00 ...  returns 0x00 (0001ms, 0344ms total)
T48BC 000:504 JLINK_ReadMemU32(0xE000ED00, 0x0001 Items, ...) -- CPU_ReadMem(4 bytes @ 0xE000ED00) - Data: 00 C2 0C 41  returns 1 (0000ms, 0344ms total)
T48BC 000:504 JLINK_SetResetType(JLINKARM_CM3_RESET_TYPE_NORMAL)  returns JLINKARM_CM3_RESET_TYPE_NORMAL (0000ms, 0344ms total)
T48BC 000:504 JLINK_Reset() -- CPU is running -- CPU_WriteMem(4 bytes @ 0xE000EDF0) -- CPU is running -- CPU_WriteMem(4 bytes @ 0xE000EDFC)Reset: Halt core after reset via DEMCR.VC_CORERESET. >0x35 TIF>Reset: Reset device via AIRCR.SYSRESETREQ. -- CPU is running -- CPU_WriteMem(4 bytes @ 0xE000ED0C) >0x0D TIF> >0x28 TIF> -- CPU_ReadMem(4 bytes @ 0xE000EDF0) -- CPU_ReadMem(4 bytes @ 0xE000EDF0) -- CPU is running -- CPU_WriteMem(4 bytes @ 0xE000EDF0) -- CPU is running -- CPU_WriteMem(4 bytes @ 0xE000EDFC)
 -- CPU_ReadMem(4 bytes @ 0xE000EDF0) -- CPU_WriteMem(4 bytes @ 0xE0002000) -- CPU_ReadMem(4 bytes @ 0xE000EDFC) -- CPU_ReadMem(4 bytes @ 0xE0001000) -- CPU_WriteMem(4 bytes @ 0xE0001000) (0068ms, 0412ms total)
T48BC 000:572 JLINK_ReadReg(R15 (PC))  returns 0x000001B4 (0000ms, 0412ms total)
T48BC 000:572 JLINK_ReadReg(XPSR)  returns 0xC1000000 (0000ms, 0412ms total)
T48BC 000:572 JLINK_Halt()  returns 0x00 (0000ms, 0412ms total)
T48BC 000:572 JLINK_IsHalted()  returns TRUE (0000ms, 0412ms total)
T48BC 000:572 JLINK_ReadMemU32(0xE000EDF0, 0x0001 Items, ...) -- CPU_ReadMem(4 bytes @ 0xE000EDF0) - Data: 03 00 03 00  returns 1 (0001ms, 0413ms total)
T48BC 000:573 JLINK_WriteU32(0xE000EDF0, 0xA05F0003) -- CPU_WriteMem(4 bytes @ 0xE000EDF0)  returns 0 (0000ms, 0413ms total)
T48BC 000:573 JLINK_WriteU32(0xE000EDFC, 0x01000000) -- CPU_WriteMem(4 bytes @ 0xE000EDFC)  returns 0 (0000ms, 0413ms total)
T48BC 000:574 JLINK_GetHWStatus(...)  returns 0x00 (0000ms, 0413ms total)
T48BC 000:574 JLINK_GetNumBPUnits(Type = 0xFFFFFF00)  returns 0x04 (0000ms, 0413ms total)
T48BC 000:574 JLINK_GetNumBPUnits(Type = 0xF0)  returns 0x2000 (0000ms, 0413ms total)
T48BC 000:574 JLINK_GetNumWPUnits()  returns 0x02 (0000ms, 0413ms total)
T48BC 000:574 JLINK_GetSpeed()  returns 0xFA0 (0000ms, 0413ms total)
T48BC 000:574 JLINK_ReadMemU32(0xE000E004, 0x0001 Items, ...) -- CPU_ReadMem(4 bytes @ 0xE000E004) - Data: 00 00 00 00  returns 1 (0002ms, 0415ms total)
T48BC 000:576 JLINK_ReadReg(R15 (PC))  returns 0x000001B4 (0000ms, 0415ms total)
T48BC 000:576 JLINK_ReadReg(XPSR)  returns 0xC1000000 (0000ms, 0415ms total)
T48BC 000:649 JLINK_SetResetType(JLINKARM_CM3_RESET_TYPE_NORMAL)  returns JLINKARM_CM3_RESET_TYPE_NORMAL (0000ms, 0415ms total)
T48BC 000:649 JLINK_Reset() -- CPU_WriteMem(4 bytes @ 0xE000EDF0) -- CPU_WriteMem(4 bytes @ 0xE000EDFC)Reset: Halt core after reset via DEMCR.VC_CORERESET. >0x35 TIF>Reset: Reset device via AIRCR.SYSRESETREQ. -- CPU_WriteMem(4 bytes @ 0xE000ED0C) >0x0D TIF> >0x28 TIF> -- CPU_ReadMem(4 bytes @ 0xE000EDF0) -- CPU_ReadMem(4 bytes @ 0xE000EDF0) -- CPU_WriteMem(4 bytes @ 0xE000EDF0) -- CPU_WriteMem(4 bytes @ 0xE000EDFC) -- CPU_ReadMem(4 bytes @ 0xE000EDF0) -- CPU_WriteMem(4 bytes @ 0xE0002000)
 -- CPU_ReadMem(4 bytes @ 0xE000EDFC) -- CPU_ReadMem(4 bytes @ 0xE0001000) -- CPU_WriteMem(4 bytes @ 0xE0001000) (0070ms, 0485ms total)
T48BC 000:719 JLINK_ReadReg(R15 (PC))  returns 0x000001B4 (0000ms, 0485ms total)
T48BC 000:719 JLINK_ReadReg(XPSR)  returns 0xC1000000 (0000ms, 0485ms total)
T48BC 001:028 JLINK_ReadMem (0x000001B4, 0x003C Bytes, ...) -- CPU_ReadMem(128 bytes @ 0x00000180) -- Updating C cache (128 bytes @ 0x00000180) -- Read from C cache (60 bytes @ 0x000001B4) - Data: 03 21 0C 48 02 68 0A 43 02 60 0B 48 02 68 0A 43 ...  returns 0x00 (0001ms, 0486ms total)
T48BC 001:147 JLINK_ReadMem (0x40008140, 0x000C Bytes, ...) -- CPU_ReadMem(12 bytes @ 0x40008140) - Data: 00 00 00 00 00 00 00 00 00 00 00 00  returns 0x00 (0001ms, 0487ms total)
T48BC 001:148 JLINK_ReadMem (0x4000814C, 0x0004 Bytes, ...) -- CPU_ReadMem(4 bytes @ 0x4000814C) - Data: 00 00 00 00  returns 0x00 (0001ms, 0488ms total)
T48BC 001:149 JLINK_ReadMem (0x40008200, 0x0004 Bytes, ...) -- CPU_ReadMem(4 bytes @ 0x40008200) - Data: 00 00 00 00  returns 0x00 (0000ms, 0488ms total)
T48BC 001:149 JLINK_ReadMem (0x40008304, 0x0004 Bytes, ...) -- CPU_ReadMem(4 bytes @ 0x40008304) - Data: 00 00 00 00  returns 0x00 (0001ms, 0489ms total)
T48BC 001:150 JLINK_ReadMem (0x40008308, 0x0004 Bytes, ...) -- CPU_ReadMem(4 bytes @ 0x40008308) - Data: 00 00 00 00  returns 0x00 (0000ms, 0489ms total)
T48BC 001:150 JLINK_ReadMem (0x40008504, 0x0004 Bytes, ...) -- CPU_ReadMem(4 bytes @ 0x40008504) - Data: 00 00 00 00  returns 0x00 (0001ms, 0490ms total)
T48BC 001:151 JLINK_ReadMem (0x40008508, 0x0004 Bytes, ...) -- CPU_ReadMem(4 bytes @ 0x40008508) - Data: 00 00 00 00  returns 0x00 (0000ms, 0490ms total)
T48BC 001:151 JLINK_ReadMem (0x40008510, 0x0004 Bytes, ...) -- CPU_ReadMem(4 bytes @ 0x40008510) - Data: 04 00 00 00  returns 0x00 (0001ms, 0491ms total)
T48BC 001:152 JLINK_ReadMem (0x40008540, 0x000C Bytes, ...) -- CPU_ReadMem(12 bytes @ 0x40008540) - Data: 00 00 00 00 00 00 00 00 00 00 00 00  returns 0x00 (0000ms, 0491ms total)
T48BC 001:152 JLINK_ReadMem (0x4000854C, 0x0004 Bytes, ...) -- CPU_ReadMem(4 bytes @ 0x4000854C) - Data: 00 00 00 00  returns 0x00 (0000ms, 0491ms total)
T48BC 001:152 JLINK_ReadMem (0x40008FFC, 0x0004 Bytes, ...) -- CPU_ReadMem(4 bytes @ 0x40008FFC) - Data: 01 00 00 00  returns 0x00 (0002ms, 0493ms total)
T48BC 002:413 JLINK_ReadMem (0x00000000, 0x019A Bytes, ...) -- CPU_ReadMem(384 bytes @ 0x00000000) -- Updating C cache (384 bytes @ 0x00000000) -- Read from C cache (410 bytes @ 0x00000000) - Data: 18 14 00 20 B5 01 00 00 CF 01 00 00 D1 01 00 00 ...  returns 0x00 (0002ms, 0495ms total)
T48BC 003:353 JLINK_ReadMem (0x20000014, 0x0004 Bytes, ...) -- CPU_ReadMem(64 bytes @ 0x20000000) -- Updating C cache (64 bytes @ 0x20000000) -- Read from C cache (4 bytes @ 0x20000014) - Data: 5E 00 00 00  returns 0x00 (0001ms, 0496ms total)
T48BC 003:363 JLINK_ReadMem (0x2000032C, 0x0020 Bytes, ...) -- CPU_ReadMem(128 bytes @ 0x20000300) -- Updating C cache (128 bytes @ 0x20000300) -- Read from C cache (32 bytes @ 0x2000032C) - Data: 00 00 00 00 00 00 00 00 00 00 00 00 00 00 00 00 ...  returns 0x00 (0000ms, 0496ms total)
T48BC 003:372 JLINK_ReadMem (0x20000020, 0x0001 Bytes, ...) -- Read from C cache (1 bytes @ 0x20000020) - Data: 04  returns 0x00 (0000ms, 0496ms total)
T48BC 003:390 JLINK_ReadMem (0x40000520, 0x019A Bytes, ...) -- CPU_ReadMem(410 bytes @ 0x40000520) - Data: 00 00 00 00 03 00 00 00 00 00 00 00 00 00 00 00 ...  returns 0x00 (0002ms, 0498ms total)
T3930 003:411 JLINK_SetBPEx(Addr = 0x00001C18, Type = 0xFFFFFFF2)  returns 0x00000001 (0000ms, 0498ms total)
T3930 003:411 JLINK_Go() -- CPU_WriteMem(4 bytes @ 0xE0002000) -- CPU_ReadMem(4 bytes @ 0xE0001000) -- CPU_WriteMem(4 bytes @ 0xE0001000) -- CPU_WriteMem(4 bytes @ 0xE0002008) -- CPU_WriteMem(4 bytes @ 0xE000200C) -- CPU_WriteMem(4 bytes @ 0xE0002010) -- CPU_WriteMem(4 bytes @ 0xE0002014) -- CPU_WriteMem(4 bytes @ 0xE0001004) (0005ms, 0503ms total)
T3930 003:517 JLINK_IsHalted()  returns TRUE (0002ms, 0505ms total)
T3930 003:519 JLINK_Halt()  returns 0x00 (0000ms, 0503ms total)
T3930 003:519 JLINK_IsHalted()  returns TRUE (0000ms, 0503ms total)
T3930 003:519 JLINK_IsHalted()  returns TRUE (0000ms, 0503ms total)
T3930 003:519 JLINK_IsHalted()  returns TRUE (0000ms, 0503ms total)
T3930 003:519 JLINK_ReadReg(R15 (PC))  returns 0x00001C18 (0000ms, 0503ms total)
T3930 003:519 JLINK_ReadReg(XPSR)  returns 0x01000000 (0000ms, 0503ms total)
T3930 003:519 JLINK_ClrBPEx(BPHandle = 0x00000001)  returns 0x00 (0000ms, 0503ms total)
T3930 003:519 JLINK_ReadMemU32(0xE000ED30, 0x0001 Items, ...) -- CPU_ReadMem(4 bytes @ 0xE000ED30) - Data: 02 00 00 00  returns 1 (0000ms, 0503ms total)
T3930 003:519 JLINK_ReadMemU32(0xE0001028, 0x0001 Items, ...) -- CPU_ReadMem(4 bytes @ 0xE0001028) - Data: 00 00 00 00  returns 1 (0001ms, 0504ms total)
T3930 003:520 JLINK_ReadMemU32(0xE0001038, 0x0001 Items, ...) -- CPU_ReadMem(4 bytes @ 0xE0001038) - Data: 00 00 00 00  returns 1 (0000ms, 0504ms total)
T3930 003:520 JLINK_ReadReg(R0)  returns 0x20000418 (0000ms, 0504ms total)
T3930 003:520 JLINK_ReadReg(R1)  returns 0x20000C18 (0000ms, 0504ms total)
T3930 003:520 JLINK_ReadReg(R2)  returns 0x20000C18 (0000ms, 0504ms total)
T3930 003:520 JLINK_ReadReg(R3)  returns 0x20000C18 (0000ms, 0504ms total)
T3930 003:520 JLINK_ReadReg(R4)  returns 0x00002CA4 (0000ms, 0504ms total)
T3930 003:520 JLINK_ReadReg(R5)  returns 0x200003B4 (0000ms, 0504ms total)
T3930 003:520 JLINK_ReadReg(R6)  returns 0x00000000 (0001ms, 0505ms total)
T3930 003:521 JLINK_ReadReg(R7)  returns 0x00000000 (0000ms, 0505ms total)
T3930 003:521 JLINK_ReadReg(R8)  returns 0xFFFFFFFF (0000ms, 0505ms total)
T3930 003:521 JLINK_ReadReg(R9)  returns 0xFFFFFFFF (0000ms, 0505ms total)
T3930 003:521 JLINK_ReadReg(R10)  returns 0x00002CA4 (0000ms, 0505ms total)
T3930 003:521 JLINK_ReadReg(R11)  returns 0x00002CA4 (0000ms, 0505ms total)
T3930 003:521 JLINK_ReadReg(R12)  returns 0xFFFFFFFF (0000ms, 0505ms total)
T3930 003:521 JLINK_ReadReg(R13 (SP))  returns 0x20001418 (0000ms, 0505ms total)
T3930 003:521 JLINK_ReadReg(R14)  returns 0x0000016D (0000ms, 0505ms total)
T3930 003:521 JLINK_ReadReg(R15 (PC))  returns 0x00001C18 (0000ms, 0505ms total)
T3930 003:521 JLINK_ReadReg(XPSR)  returns 0x01000000 (0000ms, 0505ms total)
T3930 003:521 JLINK_ReadReg(MSP)  returns 0x20001418 (0000ms, 0505ms total)
T3930 003:521 JLINK_ReadReg(PSP)  returns 0xFFFFFFFC (0000ms, 0505ms total)
T3930 003:521 JLINK_ReadReg(CFBP)  returns 0x00000000 (0000ms, 0505ms total)
T48BC 003:521 JLINK_ReadMem (0x20001410, 0x0001 Bytes, ...) -- CPU_ReadMem(64 bytes @ 0x20001400) -- Updating C cache (64 bytes @ 0x20001400) -- Read from C cache (1 bytes @ 0x20001410) - Data: A4  returns 0x00 (0001ms, 0506ms total)
T48BC 003:526 JLINK_ReadMem (0x20000014, 0x0004 Bytes, ...) -- CPU_ReadMem(64 bytes @ 0x20000000) -- Updating C cache (64 bytes @ 0x20000000) -- Read from C cache (4 bytes @ 0x20000014) - Data: 00 00 00 00  returns 0x00 (0001ms, 0507ms total)
T48BC 003:528 JLINK_ReadMem (0x2000032C, 0x0020 Bytes, ...) -- CPU_ReadMem(128 bytes @ 0x20000300) -- Updating C cache (128 bytes @ 0x20000300) -- Read from C cache (32 bytes @ 0x2000032C) - Data: 00 00 00 00 00 00 00 00 00 00 00 00 00 00 00 00 ...  returns 0x00 (0002ms, 0509ms total)
T48BC 003:530 JLINK_ReadMem (0x20000020, 0x0001 Bytes, ...) -- Read from C cache (1 bytes @ 0x20000020) - Data: 00  returns 0x00 (0000ms, 0509ms total)
T48BC 003:530 JLINK_ReadMem (0x40008140, 0x000C Bytes, ...) -- CPU_ReadMem(12 bytes @ 0x40008140) - Data: 00 00 00 00 00 00 00 00 00 00 00 00  returns 0x00 (0001ms, 0510ms total)
T48BC 003:531 JLINK_ReadMem (0x4000814C, 0x0004 Bytes, ...) -- CPU_ReadMem(4 bytes @ 0x4000814C) - Data: 00 00 00 00  returns 0x00 (0001ms, 0511ms total)
T48BC 003:532 JLINK_ReadMem (0x40008200, 0x0004 Bytes, ...) -- CPU_ReadMem(4 bytes @ 0x40008200) - Data: 00 00 00 00  returns 0x00 (0000ms, 0511ms total)
T48BC 003:532 JLINK_ReadMem (0x40008304, 0x0004 Bytes, ...) -- CPU_ReadMem(4 bytes @ 0x40008304) - Data: 00 00 00 00  returns 0x00 (0001ms, 0512ms total)
T48BC 003:533 JLINK_ReadMem (0x40008308, 0x0004 Bytes, ...) -- CPU_ReadMem(4 bytes @ 0x40008308) - Data: 00 00 00 00  returns 0x00 (0001ms, 0513ms total)
T48BC 003:534 JLINK_ReadMem (0x40008504, 0x0004 Bytes, ...) -- CPU_ReadMem(4 bytes @ 0x40008504) - Data: 00 00 00 00  returns 0x00 (0000ms, 0513ms total)
T48BC 003:534 JLINK_ReadMem (0x40008508, 0x0004 Bytes, ...) -- CPU_ReadMem(4 bytes @ 0x40008508) - Data: 00 00 00 00  returns 0x00 (0000ms, 0513ms total)
T48BC 003:534 JLINK_ReadMem (0x40008510, 0x0004 Bytes, ...) -- CPU_ReadMem(4 bytes @ 0x40008510) - Data: 04 00 00 00  returns 0x00 (0001ms, 0514ms total)
T48BC 003:535 JLINK_ReadMem (0x40008540, 0x000C Bytes, ...) -- CPU_ReadMem(12 bytes @ 0x40008540) - Data: 00 00 00 00 00 00 00 00 00 00 00 00  returns 0x00 (0001ms, 0515ms total)
T48BC 003:536 JLINK_ReadMem (0x4000854C, 0x0004 Bytes, ...) -- CPU_ReadMem(4 bytes @ 0x4000854C) - Data: 00 00 00 00  returns 0x00 (0000ms, 0515ms total)
T48BC 003:536 JLINK_ReadMem (0x40008FFC, 0x0004 Bytes, ...) -- CPU_ReadMem(4 bytes @ 0x40008FFC) - Data: 01 00 00 00  returns 0x00 (0001ms, 0516ms total)
T48BC 003:540 JLINK_ReadMem (0x00001C18, 0x003C Bytes, ...) -- CPU_ReadMem(128 bytes @ 0x00001C00) -- Updating C cache (128 bytes @ 0x00001C00) -- Read from C cache (60 bytes @ 0x00001C18) - Data: 08 B5 00 BF 21 48 00 68 21 49 08 60 FF F7 0E FB ...  returns 0x00 (0001ms, 0517ms total)
T3930 005:929 JLINK_Go() -- CPU_ReadMem(4 bytes @ 0xE0001000) -- CPU_WriteMem(4 bytes @ 0xE0001000) -- CPU_WriteMem(4 bytes @ 0xE0002008) (0002ms, 0519ms total)
T3930 006:032 JLINK_IsHalted()  returns FALSE (0000ms, 0519ms total)
T3930 006:133 JLINK_IsHalted()  returns FALSE (0000ms, 0519ms total)
T3930 006:234 JLINK_IsHalted()  returns FALSE (0000ms, 0519ms total)
T3930 006:335 JLINK_IsHalted()  returns FALSE (0001ms, 0520ms total)
T3930 006:437 JLINK_IsHalted()  returns FALSE (0000ms, 0519ms total)
T48BC 006:539 JLINK_ReadMem (0x20000014, 0x0004 Bytes, ...) -- CPU_ReadMem(4 bytes @ 0x20000014) - Data: 67 02 00 00  returns 0x00 (0000ms, 0519ms total)
T48BC 006:539 JLINK_ReadMem (0x2000032C, 0x0020 Bytes, ...) -- CPU_ReadMem(32 bytes @ 0x2000032C) - Data: 00 00 00 00 00 00 00 00 00 00 00 00 00 00 00 00 ...  returns 0x00 (0001ms, 0520ms total)
T48BC 006:540 JLINK_ReadMem (0x20000020, 0x0001 Bytes, ...) -- CPU_ReadMem(1 bytes @ 0x20000020) - Data: 01  returns 0x00 (0001ms, 0521ms total)
T48BC 006:541 JLINK_ReadMem (0x20000014, 0x0004 Bytes, ...) -- CPU_ReadMem(4 bytes @ 0x20000014) - Data: 69 02 00 00  returns 0x00 (0001ms, 0522ms total)
T48BC 006:542 JLINK_ReadMem (0x40008140, 0x000C Bytes, ...) -- CPU_ReadMem(12 bytes @ 0x40008140) - Data: 00 00 00 00 00 00 00 00 00 00 00 00  returns 0x00 (0001ms, 0523ms total)
T48BC 006:543 JLINK_ReadMem (0x4000814C, 0x0004 Bytes, ...) -- CPU_ReadMem(4 bytes @ 0x4000814C) - Data: 00 00 00 00  returns 0x00 (0000ms, 0523ms total)
T48BC 006:543 JLINK_ReadMem (0x40008200, 0x0004 Bytes, ...) -- CPU_ReadMem(4 bytes @ 0x40008200) - Data: 01 00 00 00  returns 0x00 (0001ms, 0524ms total)
T48BC 006:544 JLINK_ReadMem (0x40008304, 0x0004 Bytes, ...) -- CPU_ReadMem(4 bytes @ 0x40008304) - Data: 00 00 01 00  returns 0x00 (0000ms, 0524ms total)
T48BC 006:544 JLINK_ReadMem (0x40008308, 0x0004 Bytes, ...) -- CPU_ReadMem(4 bytes @ 0x40008308) - Data: 00 00 01 00  returns 0x00 (0000ms, 0524ms total)
T48BC 006:544 JLINK_ReadMem (0x40008504, 0x0004 Bytes, ...) -- CPU_ReadMem(4 bytes @ 0x40008504) - Data: 00 00 00 00  returns 0x00 (0002ms, 0526ms total)
T48BC 006:546 JLINK_ReadMem (0x40008508, 0x0004 Bytes, ...) -- CPU_ReadMem(4 bytes @ 0x40008508) - Data: 00 00 00 00  returns 0x00 (0001ms, 0527ms total)
T48BC 006:547 JLINK_ReadMem (0x40008510, 0x0004 Bytes, ...) -- CPU_ReadMem(4 bytes @ 0x40008510) - Data: 00 00 00 00  returns 0x00 (0000ms, 0527ms total)
T48BC 006:547 JLINK_ReadMem (0x40008540, 0x000C Bytes, ...) -- CPU_ReadMem(12 bytes @ 0x40008540) - Data: 80 3E 00 00 00 00 00 00 00 00 00 00  returns 0x00 (0001ms, 0528ms total)
T48BC 006:548 JLINK_ReadMem (0x4000854C, 0x0004 Bytes, ...) -- CPU_ReadMem(4 bytes @ 0x4000854C) - Data: 00 00 00 00  returns 0x00 (0000ms, 0528ms total)
T48BC 006:548 JLINK_ReadMem (0x40008FFC, 0x0004 Bytes, ...) -- CPU_ReadMem(4 bytes @ 0x40008FFC) - Data: 01 00 00 00  returns 0x00 (0001ms, 0529ms total)
T3930 006:573 JLINK_IsHalted()  returns FALSE (0001ms, 0530ms total)
T3930 006:675 JLINK_IsHalted()  returns FALSE (0001ms, 0530ms total)
T3930 006:776 JLINK_IsHalted()  returns FALSE (0000ms, 0529ms total)
T3930 006:878 JLINK_IsHalted()  returns FALSE (0000ms, 0529ms total)
T3930 006:979 JLINK_IsHalted()  returns FALSE (0000ms, 0529ms total)
T48BC 007:082 JLINK_ReadMem (0x20000014, 0x0004 Bytes, ...) -- CPU_ReadMem(4 bytes @ 0x20000014) - Data: A4 00 00 00  returns 0x00 (0001ms, 0530ms total)
T48BC 007:083 JLINK_ReadMem (0x2000032C, 0x0020 Bytes, ...) -- CPU_ReadMem(32 bytes @ 0x2000032C) - Data: 00 00 00 00 00 00 00 00 00 00 00 00 00 00 00 00 ...  returns 0x00 (0001ms, 0531ms total)
T48BC 007:084 JLINK_ReadMem (0x20000020, 0x0001 Bytes, ...) -- CPU_ReadMem(1 bytes @ 0x20000020) - Data: 01  returns 0x00 (0001ms, 0532ms total)
T48BC 007:085 JLINK_ReadMem (0x20000014, 0x0004 Bytes, ...) -- CPU_ReadMem(4 bytes @ 0x20000014) - Data: A7 00 00 00  returns 0x00 (0000ms, 0532ms total)
T48BC 007:086 JLINK_ReadMem (0x40008140, 0x000C Bytes, ...) -- CPU_ReadMem(12 bytes @ 0x40008140) - Data: 00 00 00 00 00 00 00 00 00 00 00 00  returns 0x00 (0000ms, 0532ms total)
T48BC 007:086 JLINK_ReadMem (0x4000814C, 0x0004 Bytes, ...) -- CPU_ReadMem(4 bytes @ 0x4000814C) - Data: 00 00 00 00  returns 0x00 (0001ms, 0533ms total)
T48BC 007:087 JLINK_ReadMem (0x40008200, 0x0004 Bytes, ...) -- CPU_ReadMem(4 bytes @ 0x40008200) - Data: 01 00 00 00  returns 0x00 (0000ms, 0533ms total)
T48BC 007:087 JLINK_ReadMem (0x40008304, 0x0004 Bytes, ...) -- CPU_ReadMem(4 bytes @ 0x40008304) - Data: 00 00 01 00  returns 0x00 (0001ms, 0534ms total)
T48BC 007:088 JLINK_ReadMem (0x40008308, 0x0004 Bytes, ...) -- CPU_ReadMem(4 bytes @ 0x40008308) - Data: 00 00 01 00  returns 0x00 (0001ms, 0535ms total)
T48BC 007:089 JLINK_ReadMem (0x40008504, 0x0004 Bytes, ...) -- CPU_ReadMem(4 bytes @ 0x40008504) - Data: 00 00 00 00  returns 0x00 (0000ms, 0535ms total)
T48BC 007:089 JLINK_ReadMem (0x40008508, 0x0004 Bytes, ...) -- CPU_ReadMem(4 bytes @ 0x40008508) - Data: 00 00 00 00  returns 0x00 (0000ms, 0535ms total)
T48BC 007:089 JLINK_ReadMem (0x40008510, 0x0004 Bytes, ...) -- CPU_ReadMem(4 bytes @ 0x40008510) - Data: 00 00 00 00  returns 0x00 (0001ms, 0536ms total)
T48BC 007:090 JLINK_ReadMem (0x40008540, 0x000C Bytes, ...) -- CPU_ReadMem(12 bytes @ 0x40008540) - Data: 80 3E 00 00 00 00 00 00 00 00 00 00  returns 0x00 (0000ms, 0536ms total)
T48BC 007:090 JLINK_ReadMem (0x4000854C, 0x0004 Bytes, ...) -- CPU_ReadMem(4 bytes @ 0x4000854C) - Data: 00 00 00 00  returns 0x00 (0000ms, 0536ms total)
T48BC 007:090 JLINK_ReadMem (0x40008FFC, 0x0004 Bytes, ...) -- CPU_ReadMem(4 bytes @ 0x40008FFC) - Data: 01 00 00 00  returns 0x00 (0002ms, 0538ms total)
T3930 007:092 JLINK_IsHalted()  returns FALSE (0001ms, 0539ms total)
T3930 007:193 JLINK_IsHalted()  returns FALSE (0000ms, 0538ms total)
T3930 007:294 JLINK_IsHalted()  returns FALSE (0000ms, 0538ms total)
T3930 007:396 JLINK_IsHalted()  returns FALSE (0000ms, 0538ms total)
T3930 007:497 JLINK_IsHalted()  returns FALSE (0000ms, 0538ms total)
T48BC 007:599 JLINK_ReadMem (0x20000014, 0x0004 Bytes, ...) -- CPU_ReadMem(4 bytes @ 0x20000014) - Data: AF 02 00 00  returns 0x00 (0001ms, 0539ms total)
T48BC 007:600 JLINK_ReadMem (0x2000032C, 0x0020 Bytes, ...) -- CPU_ReadMem(32 bytes @ 0x2000032C) - Data: 00 00 00 00 00 00 00 00 00 00 00 00 00 00 00 00 ...  returns 0x00 (0001ms, 0540ms total)
T48BC 007:601 JLINK_ReadMem (0x20000020, 0x0001 Bytes, ...) -- CPU_ReadMem(1 bytes @ 0x20000020) - Data: 04  returns 0x00 (0000ms, 0540ms total)
T48BC 007:601 JLINK_ReadMem (0x20000014, 0x0004 Bytes, ...) -- CPU_ReadMem(4 bytes @ 0x20000014) - Data: B2 02 00 00  returns 0x00 (0002ms, 0542ms total)
T48BC 007:605 JLINK_ReadMem (0x40008140, 0x000C Bytes, ...) -- CPU_ReadMem(12 bytes @ 0x40008140) - Data: 00 00 00 00 00 00 00 00 00 00 00 00  returns 0x00 (0001ms, 0543ms total)
T48BC 007:606 JLINK_ReadMem (0x4000814C, 0x0004 Bytes, ...) -- CPU_ReadMem(4 bytes @ 0x4000814C) - Data: 00 00 00 00  returns 0x00 (0000ms, 0543ms total)
T48BC 007:606 JLINK_ReadMem (0x40008200, 0x0004 Bytes, ...) -- CPU_ReadMem(4 bytes @ 0x40008200) - Data: 01 00 00 00  returns 0x00 (0000ms, 0543ms total)
T48BC 007:606 JLINK_ReadMem (0x40008304, 0x0004 Bytes, ...) -- CPU_ReadMem(4 bytes @ 0x40008304) - Data: 00 00 01 00  returns 0x00 (0001ms, 0544ms total)
T48BC 007:607 JLINK_ReadMem (0x40008308, 0x0004 Bytes, ...) -- CPU_ReadMem(4 bytes @ 0x40008308) - Data: 00 00 01 00  returns 0x00 (0000ms, 0544ms total)
T48BC 007:607 JLINK_ReadMem (0x40008504, 0x0004 Bytes, ...) -- CPU_ReadMem(4 bytes @ 0x40008504) - Data: 00 00 00 00  returns 0x00 (0001ms, 0545ms total)
T48BC 007:608 JLINK_ReadMem (0x40008508, 0x0004 Bytes, ...) -- CPU_ReadMem(4 bytes @ 0x40008508) - Data: 00 00 00 00  returns 0x00 (0000ms, 0545ms total)
T48BC 007:608 JLINK_ReadMem (0x40008510, 0x0004 Bytes, ...) -- CPU_ReadMem(4 bytes @ 0x40008510) - Data: 00 00 00 00  returns 0x00 (0001ms, 0546ms total)
T48BC 007:609 JLINK_ReadMem (0x40008540, 0x000C Bytes, ...) -- CPU_ReadMem(12 bytes @ 0x40008540) - Data: 80 3E 00 00 00 00 00 00 00 00 00 00  returns 0x00 (0000ms, 0546ms total)
T48BC 007:609 JLINK_ReadMem (0x4000854C, 0x0004 Bytes, ...) -- CPU_ReadMem(4 bytes @ 0x4000854C) - Data: 00 00 00 00  returns 0x00 (0001ms, 0547ms total)
T48BC 007:610 JLINK_ReadMem (0x40008FFC, 0x0004 Bytes, ...) -- CPU_ReadMem(4 bytes @ 0x40008FFC) - Data: 01 00 00 00  returns 0x00 (0000ms, 0547ms total)
T3930 007:611 JLINK_IsHalted()  returns FALSE (0000ms, 0547ms total)
T3930 007:713 JLINK_IsHalted()  returns FALSE (0000ms, 0547ms total)
T3930 007:813 JLINK_IsHalted()  returns FALSE (0000ms, 0547ms total)
T3930 007:915 JLINK_IsHalted()  returns FALSE (0000ms, 0547ms total)
T3930 008:016 JLINK_IsHalted()  returns FALSE (0000ms, 0547ms total)
T48BC 008:120 JLINK_ReadMem (0x20000014, 0x0004 Bytes, ...) -- CPU_ReadMem(4 bytes @ 0x20000014) - Data: D6 00 00 00  returns 0x00 (0000ms, 0547ms total)
T48BC 008:121 JLINK_ReadMem (0x2000032C, 0x0020 Bytes, ...) -- CPU_ReadMem(32 bytes @ 0x2000032C) - Data: 00 00 00 00 00 00 00 00 00 00 00 00 00 00 00 00 ...  returns 0x00 (0000ms, 0547ms total)
T48BC 008:122 JLINK_ReadMem (0x20000020, 0x0001 Bytes, ...) -- CPU_ReadMem(1 bytes @ 0x20000020) - Data: 01  returns 0x00 (0000ms, 0547ms total)
T48BC 008:123 JLINK_ReadMem (0x20000014, 0x0004 Bytes, ...) -- CPU_ReadMem(4 bytes @ 0x20000014) - Data: D9 00 00 00  returns 0x00 (0000ms, 0547ms total)
T48BC 008:123 JLINK_ReadMem (0x40008140, 0x000C Bytes, ...) -- CPU_ReadMem(12 bytes @ 0x40008140) - Data: 00 00 00 00 00 00 00 00 00 00 00 00  returns 0x00 (0002ms, 0549ms total)
T48BC 008:125 JLINK_ReadMem (0x4000814C, 0x0004 Bytes, ...) -- CPU_ReadMem(4 bytes @ 0x4000814C) - Data: 00 00 00 00  returns 0x00 (0000ms, 0549ms total)
T48BC 008:125 JLINK_ReadMem (0x40008200, 0x0004 Bytes, ...) -- CPU_ReadMem(4 bytes @ 0x40008200) - Data: 01 00 00 00  returns 0x00 (0001ms, 0550ms total)
T48BC 008:126 JLINK_ReadMem (0x40008304, 0x0004 Bytes, ...) -- CPU_ReadMem(4 bytes @ 0x40008304) - Data: 00 00 01 00  returns 0x00 (0000ms, 0550ms total)
T48BC 008:126 JLINK_ReadMem (0x40008308, 0x0004 Bytes, ...) -- CPU_ReadMem(4 bytes @ 0x40008308) - Data: 00 00 01 00  returns 0x00 (0000ms, 0550ms total)
T48BC 008:126 JLINK_ReadMem (0x40008504, 0x0004 Bytes, ...) -- CPU_ReadMem(4 bytes @ 0x40008504) - Data: 00 00 00 00  returns 0x00 (0000ms, 0550ms total)
T48BC 008:126 JLINK_ReadMem (0x40008508, 0x0004 Bytes, ...) -- CPU_ReadMem(4 bytes @ 0x40008508) - Data: 00 00 00 00  returns 0x00 (0001ms, 0551ms total)
T48BC 008:127 JLINK_ReadMem (0x40008510, 0x0004 Bytes, ...) -- CPU_ReadMem(4 bytes @ 0x40008510) - Data: 00 00 00 00  returns 0x00 (0000ms, 0551ms total)
T48BC 008:127 JLINK_ReadMem (0x40008540, 0x000C Bytes, ...) -- CPU_ReadMem(12 bytes @ 0x40008540) - Data: 80 3E 00 00 00 00 00 00 00 00 00 00  returns 0x00 (0001ms, 0552ms total)
T48BC 008:128 JLINK_ReadMem (0x4000854C, 0x0004 Bytes, ...) -- CPU_ReadMem(4 bytes @ 0x4000854C) - Data: 00 00 00 00  returns 0x00 (0001ms, 0553ms total)
T48BC 008:129 JLINK_ReadMem (0x40008FFC, 0x0004 Bytes, ...) -- CPU_ReadMem(4 bytes @ 0x40008FFC) - Data: 01 00 00 00  returns 0x00 (0000ms, 0553ms total)
T3930 008:129 JLINK_IsHalted()  returns FALSE (0001ms, 0554ms total)
T3930 008:231 JLINK_IsHalted()  returns FALSE (0000ms, 0553ms total)
T3930 008:333 JLINK_IsHalted()  returns FALSE (0000ms, 0553ms total)
T3930 008:434 JLINK_IsHalted()  returns FALSE (0000ms, 0553ms total)
T3930 008:536 JLINK_IsHalted()  returns FALSE (0000ms, 0553ms total)
T48BC 008:637 JLINK_ReadMem (0x20000014, 0x0004 Bytes, ...) -- CPU_ReadMem(4 bytes @ 0x20000014) - Data: E1 02 00 00  returns 0x00 (0000ms, 0553ms total)
T48BC 008:638 JLINK_ReadMem (0x2000032C, 0x0020 Bytes, ...) -- CPU_ReadMem(32 bytes @ 0x2000032C) - Data: 00 00 00 00 00 00 00 00 00 00 00 00 00 00 00 00 ...  returns 0x00 (0001ms, 0554ms total)
T48BC 008:639 JLINK_ReadMem (0x20000020, 0x0001 Bytes, ...) -- CPU_ReadMem(1 bytes @ 0x20000020) - Data: 04  returns 0x00 (0000ms, 0554ms total)
T48BC 008:639 JLINK_ReadMem (0x20000014, 0x0004 Bytes, ...) -- CPU_ReadMem(4 bytes @ 0x20000014) - Data: E4 02 00 00  returns 0x00 (0000ms, 0554ms total)
T48BC 008:641 JLINK_ReadMem (0x40008140, 0x000C Bytes, ...) -- CPU_ReadMem(12 bytes @ 0x40008140) - Data: 00 00 00 00 00 00 00 00 00 00 00 00  returns 0x00 (0000ms, 0554ms total)
T48BC 008:641 JLINK_ReadMem (0x4000814C, 0x0004 Bytes, ...) -- CPU_ReadMem(4 bytes @ 0x4000814C) - Data: 00 00 00 00  returns 0x00 (0001ms, 0555ms total)
T48BC 008:642 JLINK_ReadMem (0x40008200, 0x0004 Bytes, ...) -- CPU_ReadMem(4 bytes @ 0x40008200) - Data: 01 00 00 00  returns 0x00 (0000ms, 0555ms total)
T48BC 008:642 JLINK_ReadMem (0x40008304, 0x0004 Bytes, ...) -- CPU_ReadMem(4 bytes @ 0x40008304) - Data: 00 00 01 00  returns 0x00 (0001ms, 0556ms total)
T48BC 008:643 JLINK_ReadMem (0x40008308, 0x0004 Bytes, ...) -- CPU_ReadMem(4 bytes @ 0x40008308) - Data: 00 00 01 00  returns 0x00 (0000ms, 0556ms total)
T48BC 008:643 JLINK_ReadMem (0x40008504, 0x0004 Bytes, ...) -- CPU_ReadMem(4 bytes @ 0x40008504) - Data: 00 00 00 00  returns 0x00 (0001ms, 0557ms total)
T48BC 008:644 JLINK_ReadMem (0x40008508, 0x0004 Bytes, ...) -- CPU_ReadMem(4 bytes @ 0x40008508) - Data: 00 00 00 00  returns 0x00 (0000ms, 0557ms total)
T48BC 008:644 JLINK_ReadMem (0x40008510, 0x0004 Bytes, ...) -- CPU_ReadMem(4 bytes @ 0x40008510) - Data: 00 00 00 00  returns 0x00 (0002ms, 0559ms total)
T48BC 008:646 JLINK_ReadMem (0x40008540, 0x000C Bytes, ...) -- CPU_ReadMem(12 bytes @ 0x40008540) - Data: 80 3E 00 00 00 00 00 00 00 00 00 00  returns 0x00 (0001ms, 0560ms total)
T48BC 008:647 JLINK_ReadMem (0x4000854C, 0x0004 Bytes, ...) -- CPU_ReadMem(4 bytes @ 0x4000854C) - Data: 00 00 00 00  returns 0x00 (0000ms, 0560ms total)
T48BC 008:647 JLINK_ReadMem (0x40008FFC, 0x0004 Bytes, ...) -- CPU_ReadMem(4 bytes @ 0x40008FFC) - Data: 01 00 00 00  returns 0x00 (0001ms, 0561ms total)
T3930 008:649 JLINK_IsHalted()  returns FALSE (0000ms, 0561ms total)
T3930 008:751 JLINK_IsHalted()  returns FALSE (0000ms, 0561ms total)
T3930 008:852 JLINK_IsHalted()  returns FALSE (0000ms, 0561ms total)
T3930 008:953 JLINK_IsHalted()  returns FALSE (0000ms, 0561ms total)
T3930 009:054 JLINK_IsHalted()  returns FALSE (0000ms, 0561ms total)
T48BC 009:156 JLINK_ReadMem (0x20000014, 0x0004 Bytes, ...) -- CPU_ReadMem(4 bytes @ 0x20000014) - Data: 06 01 00 00  returns 0x00 (0001ms, 0562ms total)
T48BC 009:157 JLINK_ReadMem (0x2000032C, 0x0020 Bytes, ...) -- CPU_ReadMem(32 bytes @ 0x2000032C) - Data: 00 00 00 00 00 00 00 00 00 00 00 00 00 00 00 00 ...  returns 0x00 (0001ms, 0563ms total)
T48BC 009:159 JLINK_ReadMem (0x20000020, 0x0001 Bytes, ...) -- CPU_ReadMem(1 bytes @ 0x20000020) - Data: 00  returns 0x00 (0001ms, 0564ms total)
T48BC 009:160 JLINK_ReadMem (0x20000014, 0x0004 Bytes, ...) -- CPU_ReadMem(4 bytes @ 0x20000014) - Data: 0A 01 00 00  returns 0x00 (0001ms, 0565ms total)
T48BC 009:162 JLINK_ReadMem (0x40008140, 0x000C Bytes, ...) -- CPU_ReadMem(12 bytes @ 0x40008140) - Data: 00 00 00 00 00 00 00 00 00 00 00 00  returns 0x00 (0001ms, 0566ms total)
T48BC 009:163 JLINK_ReadMem (0x4000814C, 0x0004 Bytes, ...) -- CPU_ReadMem(4 bytes @ 0x4000814C) - Data: 00 00 00 00  returns 0x00 (0000ms, 0566ms total)
T48BC 009:163 JLINK_ReadMem (0x40008200, 0x0004 Bytes, ...) -- CPU_ReadMem(4 bytes @ 0x40008200) - Data: 01 00 00 00  returns 0x00 (0000ms, 0566ms total)
T48BC 009:163 JLINK_ReadMem (0x40008304, 0x0004 Bytes, ...) -- CPU_ReadMem(4 bytes @ 0x40008304) - Data: 00 00 01 00  returns 0x00 (0002ms, 0568ms total)
T48BC 009:165 JLINK_ReadMem (0x40008308, 0x0004 Bytes, ...) -- CPU_ReadMem(4 bytes @ 0x40008308) - Data: 00 00 01 00  returns 0x00 (0000ms, 0568ms total)
T48BC 009:165 JLINK_ReadMem (0x40008504, 0x0004 Bytes, ...) -- CPU_ReadMem(4 bytes @ 0x40008504) - Data: 00 00 00 00  returns 0x00 (0001ms, 0569ms total)
T48BC 009:166 JLINK_ReadMem (0x40008508, 0x0004 Bytes, ...) -- CPU_ReadMem(4 bytes @ 0x40008508) - Data: 00 00 00 00  returns 0x00 (0000ms, 0569ms total)
T48BC 009:166 JLINK_ReadMem (0x40008510, 0x0004 Bytes, ...) -- CPU_ReadMem(4 bytes @ 0x40008510) - Data: 00 00 00 00  returns 0x00 (0001ms, 0570ms total)
T48BC 009:167 JLINK_ReadMem (0x40008540, 0x000C Bytes, ...) -- CPU_ReadMem(12 bytes @ 0x40008540) - Data: 80 3E 00 00 00 00 00 00 00 00 00 00  returns 0x00 (0000ms, 0570ms total)
T48BC 009:167 JLINK_ReadMem (0x4000854C, 0x0004 Bytes, ...) -- CPU_ReadMem(4 bytes @ 0x4000854C) - Data: 00 00 00 00  returns 0x00 (0001ms, 0571ms total)
T48BC 009:168 JLINK_ReadMem (0x40008FFC, 0x0004 Bytes, ...) -- CPU_ReadMem(4 bytes @ 0x40008FFC) - Data: 01 00 00 00  returns 0x00 (0000ms, 0571ms total)
T3930 009:168 JLINK_IsHalted()  returns FALSE (0001ms, 0572ms total)
T3930 009:270 JLINK_IsHalted()  returns FALSE (0000ms, 0571ms total)
T3930 009:371 JLINK_IsHalted()  returns FALSE (0000ms, 0571ms total)
T3930 009:472 JLINK_IsHalted()  returns FALSE (0000ms, 0571ms total)
T3930 009:573 JLINK_IsHalted()  returns FALSE (0000ms, 0571ms total)
T48BC 009:674 JLINK_ReadMem (0x20000014, 0x0004 Bytes, ...) -- CPU_ReadMem(4 bytes @ 0x20000014) - Data: 13 03 00 00  returns 0x00 (0002ms, 0573ms total)
T48BC 009:676 JLINK_ReadMem (0x2000032C, 0x0020 Bytes, ...) -- CPU_ReadMem(32 bytes @ 0x2000032C) - Data: 00 00 00 00 00 00 00 00 00 00 00 00 00 00 00 00 ...  returns 0x00 (0001ms, 0574ms total)
T48BC 009:677 JLINK_ReadMem (0x20000020, 0x0001 Bytes, ...) -- CPU_ReadMem(1 bytes @ 0x20000020) - Data: 04  returns 0x00 (0001ms, 0575ms total)
T48BC 009:679 JLINK_ReadMem (0x20000014, 0x0004 Bytes, ...) -- CPU_ReadMem(4 bytes @ 0x20000014) - Data: 16 03 00 00  returns 0x00 (0000ms, 0575ms total)
T48BC 009:680 JLINK_ReadMem (0x40008140, 0x000C Bytes, ...) -- CPU_ReadMem(12 bytes @ 0x40008140) - Data: 00 00 00 00 00 00 00 00 00 00 00 00  returns 0x00 (0000ms, 0575ms total)
T48BC 009:680 JLINK_ReadMem (0x4000814C, 0x0004 Bytes, ...) -- CPU_ReadMem(4 bytes @ 0x4000814C) - Data: 00 00 00 00  returns 0x00 (0000ms, 0575ms total)
T48BC 009:680 JLINK_ReadMem (0x40008200, 0x0004 Bytes, ...) -- CPU_ReadMem(4 bytes @ 0x40008200) - Data: 01 00 00 00  returns 0x00 (0002ms, 0577ms total)
T48BC 009:682 JLINK_ReadMem (0x40008304, 0x0004 Bytes, ...) -- CPU_ReadMem(4 bytes @ 0x40008304) - Data: 00 00 01 00  returns 0x00 (0000ms, 0577ms total)
T48BC 009:682 JLINK_ReadMem (0x40008308, 0x0004 Bytes, ...) -- CPU_ReadMem(4 bytes @ 0x40008308) - Data: 00 00 01 00  returns 0x00 (0001ms, 0578ms total)
T48BC 009:683 JLINK_ReadMem (0x40008504, 0x0004 Bytes, ...) -- CPU_ReadMem(4 bytes @ 0x40008504) - Data: 00 00 00 00  returns 0x00 (0000ms, 0578ms total)
T48BC 009:683 JLINK_ReadMem (0x40008508, 0x0004 Bytes, ...) -- CPU_ReadMem(4 bytes @ 0x40008508) - Data: 00 00 00 00  returns 0x00 (0000ms, 0578ms total)
T48BC 009:683 JLINK_ReadMem (0x40008510, 0x0004 Bytes, ...) -- CPU_ReadMem(4 bytes @ 0x40008510) - Data: 00 00 00 00  returns 0x00 (0001ms, 0579ms total)
T48BC 009:684 JLINK_ReadMem (0x40008540, 0x000C Bytes, ...) -- CPU_ReadMem(12 bytes @ 0x40008540) - Data: 80 3E 00 00 00 00 00 00 00 00 00 00  returns 0x00 (0000ms, 0579ms total)
T48BC 009:684 JLINK_ReadMem (0x4000854C, 0x0004 Bytes, ...) -- CPU_ReadMem(4 bytes @ 0x4000854C) - Data: 00 00 00 00  returns 0x00 (0002ms, 0581ms total)
T48BC 009:686 JLINK_ReadMem (0x40008FFC, 0x0004 Bytes, ...) -- CPU_ReadMem(4 bytes @ 0x40008FFC) - Data: 01 00 00 00  returns 0x00 (0000ms, 0581ms total)
T3930 009:687 JLINK_IsHalted()  returns FALSE (0000ms, 0581ms total)
T3930 009:788 JLINK_IsHalted()  returns FALSE (0000ms, 0581ms total)
T3930 009:889 JLINK_IsHalted()  returns FALSE (0000ms, 0581ms total)
T3930 009:991 JLINK_IsHalted()  returns FALSE (0000ms, 0581ms total)
T3930 010:092 JLINK_IsHalted()  returns FALSE (0000ms, 0581ms total)
T48BC 010:194 JLINK_ReadMem (0x20000014, 0x0004 Bytes, ...) -- CPU_ReadMem(4 bytes @ 0x20000014) - Data: 38 01 00 00  returns 0x00 (0000ms, 0581ms total)
T48BC 010:194 JLINK_ReadMem (0x2000032C, 0x0020 Bytes, ...) -- CPU_ReadMem(32 bytes @ 0x2000032C) - Data: 00 00 00 00 00 00 00 00 00 00 00 00 00 00 00 00 ...  returns 0x00 (0002ms, 0583ms total)
T48BC 010:196 JLINK_ReadMem (0x20000020, 0x0001 Bytes, ...) -- CPU_ReadMem(1 bytes @ 0x20000020) - Data: 03  returns 0x00 (0001ms, 0584ms total)
T48BC 010:197 JLINK_ReadMem (0x20000014, 0x0004 Bytes, ...) -- CPU_ReadMem(4 bytes @ 0x20000014) - Data: 3A 01 00 00  returns 0x00 (0000ms, 0584ms total)
T48BC 010:198 JLINK_ReadMem (0x40008140, 0x000C Bytes, ...) -- CPU_ReadMem(12 bytes @ 0x40008140) - Data: 00 00 00 00 00 00 00 00 00 00 00 00  returns 0x00 (0000ms, 0584ms total)
T48BC 010:198 JLINK_ReadMem (0x4000814C, 0x0004 Bytes, ...) -- CPU_ReadMem(4 bytes @ 0x4000814C) - Data: 00 00 00 00  returns 0x00 (0000ms, 0584ms total)
T48BC 010:198 JLINK_ReadMem (0x40008200, 0x0004 Bytes, ...) -- CPU_ReadMem(4 bytes @ 0x40008200) - Data: 01 00 00 00  returns 0x00 (0001ms, 0585ms total)
T48BC 010:199 JLINK_ReadMem (0x40008304, 0x0004 Bytes, ...) -- CPU_ReadMem(4 bytes @ 0x40008304) - Data: 00 00 01 00  returns 0x00 (0000ms, 0585ms total)
T48BC 010:199 JLINK_ReadMem (0x40008308, 0x0004 Bytes, ...) -- CPU_ReadMem(4 bytes @ 0x40008308) - Data: 00 00 01 00  returns 0x00 (0001ms, 0586ms total)
T48BC 010:200 JLINK_ReadMem (0x40008504, 0x0004 Bytes, ...) -- CPU_ReadMem(4 bytes @ 0x40008504) - Data: 00 00 00 00  returns 0x00 (0000ms, 0586ms total)
T48BC 010:200 JLINK_ReadMem (0x40008508, 0x0004 Bytes, ...) -- CPU_ReadMem(4 bytes @ 0x40008508) - Data: 00 00 00 00  returns 0x00 (0001ms, 0587ms total)
T48BC 010:201 JLINK_ReadMem (0x40008510, 0x0004 Bytes, ...) -- CPU_ReadMem(4 bytes @ 0x40008510) - Data: 00 00 00 00  returns 0x00 (0000ms, 0587ms total)
T48BC 010:201 JLINK_ReadMem (0x40008540, 0x000C Bytes, ...) -- CPU_ReadMem(12 bytes @ 0x40008540) - Data: 80 3E 00 00 00 00 00 00 00 00 00 00  returns 0x00 (0001ms, 0588ms total)
T48BC 010:202 JLINK_ReadMem (0x4000854C, 0x0004 Bytes, ...) -- CPU_ReadMem(4 bytes @ 0x4000854C) - Data: 00 00 00 00  returns 0x00 (0000ms, 0588ms total)
T48BC 010:202 JLINK_ReadMem (0x40008FFC, 0x0004 Bytes, ...) -- CPU_ReadMem(4 bytes @ 0x40008FFC) - Data: 01 00 00 00  returns 0x00 (0001ms, 0589ms total)
T3930 010:204 JLINK_IsHalted()  returns FALSE (0000ms, 0589ms total)
T3930 010:306 JLINK_IsHalted()  returns FALSE (0000ms, 0589ms total)
T3930 010:407 JLINK_IsHalted()  returns FALSE (0000ms, 0589ms total)
T3930 010:508 JLINK_IsHalted()  returns FALSE (0000ms, 0589ms total)
T3930 010:609 JLINK_IsHalted()  returns FALSE (0000ms, 0589ms total)
T48BC 010:712 JLINK_ReadMem (0x20000014, 0x0004 Bytes, ...) -- CPU_ReadMem(4 bytes @ 0x20000014) - Data: 43 03 00 00  returns 0x00 (0000ms, 0589ms total)
T48BC 010:713 JLINK_ReadMem (0x2000032C, 0x0020 Bytes, ...) -- CPU_ReadMem(32 bytes @ 0x2000032C) - Data: 00 00 00 00 00 00 00 00 00 00 00 00 00 00 00 00 ...  returns 0x00 (0000ms, 0589ms total)
T48BC 010:714 JLINK_ReadMem (0x20000020, 0x0001 Bytes, ...) -- CPU_ReadMem(1 bytes @ 0x20000020) - Data: 02  returns 0x00 (0000ms, 0589ms total)
T48BC 010:715 JLINK_ReadMem (0x20000014, 0x0004 Bytes, ...) -- CPU_ReadMem(4 bytes @ 0x20000014) - Data: 46 03 00 00  returns 0x00 (0000ms, 0589ms total)
T48BC 010:716 JLINK_ReadMem (0x40008140, 0x000C Bytes, ...) -- CPU_ReadMem(12 bytes @ 0x40008140) - Data: 00 00 00 00 00 00 00 00 00 00 00 00  returns 0x00 (0000ms, 0589ms total)
T48BC 010:716 JLINK_ReadMem (0x4000814C, 0x0004 Bytes, ...) -- CPU_ReadMem(4 bytes @ 0x4000814C) - Data: 00 00 00 00  returns 0x00 (0000ms, 0589ms total)
T48BC 010:716 JLINK_ReadMem (0x40008200, 0x0004 Bytes, ...) -- CPU_ReadMem(4 bytes @ 0x40008200) - Data: 01 00 00 00  returns 0x00 (0001ms, 0590ms total)
T48BC 010:717 JLINK_ReadMem (0x40008304, 0x0004 Bytes, ...) -- CPU_ReadMem(4 bytes @ 0x40008304) - Data: 00 00 01 00  returns 0x00 (0000ms, 0590ms total)
T48BC 010:717 JLINK_ReadMem (0x40008308, 0x0004 Bytes, ...) -- CPU_ReadMem(4 bytes @ 0x40008308) - Data: 00 00 01 00  returns 0x00 (0001ms, 0591ms total)
T48BC 010:718 JLINK_ReadMem (0x40008504, 0x0004 Bytes, ...) -- CPU_ReadMem(4 bytes @ 0x40008504) - Data: 00 00 00 00  returns 0x00 (0000ms, 0591ms total)
T48BC 010:718 JLINK_ReadMem (0x40008508, 0x0004 Bytes, ...) -- CPU_ReadMem(4 bytes @ 0x40008508) - Data: 00 00 00 00  returns 0x00 (0001ms, 0592ms total)
T48BC 010:719 JLINK_ReadMem (0x40008510, 0x0004 Bytes, ...) -- CPU_ReadMem(4 bytes @ 0x40008510) - Data: 00 00 00 00  returns 0x00 (0001ms, 0593ms total)
T48BC 010:720 JLINK_ReadMem (0x40008540, 0x000C Bytes, ...) -- CPU_ReadMem(12 bytes @ 0x40008540) - Data: 80 3E 00 00 00 00 00 00 00 00 00 00  returns 0x00 (0000ms, 0593ms total)
T48BC 010:720 JLINK_ReadMem (0x4000854C, 0x0004 Bytes, ...) -- CPU_ReadMem(4 bytes @ 0x4000854C) - Data: 00 00 00 00  returns 0x00 (0001ms, 0594ms total)
T48BC 010:721 JLINK_ReadMem (0x40008FFC, 0x0004 Bytes, ...) -- CPU_ReadMem(4 bytes @ 0x40008FFC) - Data: 01 00 00 00  returns 0x00 (0000ms, 0594ms total)
T3930 010:722 JLINK_IsHalted()  returns FALSE (0000ms, 0594ms total)
T3930 010:823 JLINK_IsHalted()  returns FALSE (0000ms, 0594ms total)
T3930 010:925 JLINK_IsHalted()  returns FALSE (0000ms, 0594ms total)
T3930 011:026 JLINK_IsHalted()  returns FALSE (0000ms, 0594ms total)
T3930 011:127 JLINK_IsHalted()  returns FALSE (0000ms, 0594ms total)
T48BC 011:232 JLINK_ReadMem (0x20000014, 0x0004 Bytes, ...) -- CPU_ReadMem(4 bytes @ 0x20000014) - Data: 6A 01 00 00  returns 0x00 (0000ms, 0594ms total)
T48BC 011:233 JLINK_ReadMem (0x2000032C, 0x0020 Bytes, ...) -- CPU_ReadMem(32 bytes @ 0x2000032C) - Data: 00 00 00 00 00 00 00 00 00 00 00 00 00 00 00 00 ...  returns 0x00 (0000ms, 0594ms total)
T48BC 011:234 JLINK_ReadMem (0x20000020, 0x0001 Bytes, ...) -- CPU_ReadMem(1 bytes @ 0x20000020) - Data: 04  returns 0x00 (0000ms, 0594ms total)
T48BC 011:235 JLINK_ReadMem (0x20000014, 0x0004 Bytes, ...) -- CPU_ReadMem(4 bytes @ 0x20000014) - Data: 6D 01 00 00  returns 0x00 (0001ms, 0595ms total)
T48BC 011:236 JLINK_ReadMem (0x40008140, 0x000C Bytes, ...) -- CPU_ReadMem(12 bytes @ 0x40008140) - Data: 00 00 00 00 00 00 00 00 00 00 00 00  returns 0x00 (0001ms, 0596ms total)
T48BC 011:237 JLINK_ReadMem (0x4000814C, 0x0004 Bytes, ...) -- CPU_ReadMem(4 bytes @ 0x4000814C) - Data: 00 00 00 00  returns 0x00 (0000ms, 0596ms total)
T48BC 011:237 JLINK_ReadMem (0x40008200, 0x0004 Bytes, ...) -- CPU_ReadMem(4 bytes @ 0x40008200) - Data: 01 00 00 00  returns 0x00 (0001ms, 0597ms total)
T48BC 011:238 JLINK_ReadMem (0x40008304, 0x0004 Bytes, ...) -- CPU_ReadMem(4 bytes @ 0x40008304) - Data: 00 00 01 00  returns 0x00 (0000ms, 0597ms total)
T48BC 011:238 JLINK_ReadMem (0x40008308, 0x0004 Bytes, ...) -- CPU_ReadMem(4 bytes @ 0x40008308) - Data: 00 00 01 00  returns 0x00 (0001ms, 0598ms total)
T48BC 011:239 JLINK_ReadMem (0x40008504, 0x0004 Bytes, ...) -- CPU_ReadMem(4 bytes @ 0x40008504) - Data: 00 00 00 00  returns 0x00 (0000ms, 0598ms total)
T48BC 011:239 JLINK_ReadMem (0x40008508, 0x0004 Bytes, ...) -- CPU_ReadMem(4 bytes @ 0x40008508) - Data: 00 00 00 00  returns 0x00 (0001ms, 0599ms total)
T48BC 011:240 JLINK_ReadMem (0x40008510, 0x0004 Bytes, ...) -- CPU_ReadMem(4 bytes @ 0x40008510) - Data: 00 00 00 00  returns 0x00 (0000ms, 0599ms total)
T48BC 011:240 JLINK_ReadMem (0x40008540, 0x000C Bytes, ...) -- CPU_ReadMem(12 bytes @ 0x40008540) - Data: 80 3E 00 00 00 00 00 00 00 00 00 00  returns 0x00 (0001ms, 0600ms total)
T48BC 011:241 JLINK_ReadMem (0x4000854C, 0x0004 Bytes, ...) -- CPU_ReadMem(4 bytes @ 0x4000854C) - Data: 00 00 00 00  returns 0x00 (0000ms, 0600ms total)
T48BC 011:241 JLINK_ReadMem (0x40008FFC, 0x0004 Bytes, ...) -- CPU_ReadMem(4 bytes @ 0x40008FFC) - Data: 01 00 00 00  returns 0x00 (0001ms, 0601ms total)
T3930 011:243 JLINK_IsHalted()  returns FALSE (0000ms, 0601ms total)
T3930 011:344 JLINK_IsHalted()  returns FALSE (0000ms, 0601ms total)
T3930 011:446 JLINK_IsHalted()  returns FALSE (0000ms, 0601ms total)
T3930 011:547 JLINK_IsHalted()  returns FALSE (0000ms, 0601ms total)
T3930 011:648 JLINK_IsHalted()  returns FALSE (0000ms, 0601ms total)
T48BC 011:750 JLINK_ReadMem (0x20000014, 0x0004 Bytes, ...) -- CPU_ReadMem(4 bytes @ 0x20000014) - Data: 75 03 00 00  returns 0x00 (0000ms, 0601ms total)
T48BC 011:751 JLINK_ReadMem (0x2000032C, 0x0020 Bytes, ...) -- CPU_ReadMem(32 bytes @ 0x2000032C) - Data: 00 00 00 00 00 00 00 00 00 00 00 00 00 00 00 00 ...  returns 0x00 (0000ms, 0601ms total)
T48BC 011:752 JLINK_ReadMem (0x20000020, 0x0001 Bytes, ...) -- CPU_ReadMem(1 bytes @ 0x20000020) - Data: 02  returns 0x00 (0000ms, 0601ms total)
T48BC 011:752 JLINK_ReadMem (0x20000014, 0x0004 Bytes, ...) -- CPU_ReadMem(4 bytes @ 0x20000014) - Data: 78 03 00 00  returns 0x00 (0001ms, 0602ms total)
T48BC 011:753 JLINK_ReadMem (0x40008140, 0x000C Bytes, ...) -- CPU_ReadMem(12 bytes @ 0x40008140) - Data: 00 00 00 00 00 00 00 00 00 00 00 00  returns 0x00 (0001ms, 0603ms total)
T48BC 011:754 JLINK_ReadMem (0x4000814C, 0x0004 Bytes, ...) -- CPU_ReadMem(4 bytes @ 0x4000814C) - Data: 00 00 00 00  returns 0x00 (0000ms, 0603ms total)
T48BC 011:754 JLINK_ReadMem (0x40008200, 0x0004 Bytes, ...) -- CPU_ReadMem(4 bytes @ 0x40008200) - Data: 01 00 00 00  returns 0x00 (0000ms, 0603ms total)
T48BC 011:754 JLINK_ReadMem (0x40008304, 0x0004 Bytes, ...) -- CPU_ReadMem(4 bytes @ 0x40008304) - Data: 00 00 01 00  returns 0x00 (0002ms, 0605ms total)
T48BC 011:756 JLINK_ReadMem (0x40008308, 0x0004 Bytes, ...) -- CPU_ReadMem(4 bytes @ 0x40008308) - Data: 00 00 01 00  returns 0x00 (0000ms, 0605ms total)
T48BC 011:756 JLINK_ReadMem (0x40008504, 0x0004 Bytes, ...) -- CPU_ReadMem(4 bytes @ 0x40008504) - Data: 00 00 00 00  returns 0x00 (0001ms, 0606ms total)
T48BC 011:757 JLINK_ReadMem (0x40008508, 0x0004 Bytes, ...) -- CPU_ReadMem(4 bytes @ 0x40008508) - Data: 00 00 00 00  returns 0x00 (0000ms, 0606ms total)
T48BC 011:757 JLINK_ReadMem (0x40008510, 0x0004 Bytes, ...) -- CPU_ReadMem(4 bytes @ 0x40008510) - Data: 00 00 00 00  returns 0x00 (0001ms, 0607ms total)
T48BC 011:758 JLINK_ReadMem (0x40008540, 0x000C Bytes, ...) -- CPU_ReadMem(12 bytes @ 0x40008540) - Data: 80 3E 00 00 00 00 00 00 00 00 00 00  returns 0x00 (0000ms, 0607ms total)
T48BC 011:758 JLINK_ReadMem (0x4000854C, 0x0004 Bytes, ...) -- CPU_ReadMem(4 bytes @ 0x4000854C) - Data: 00 00 00 00  returns 0x00 (0001ms, 0608ms total)
T48BC 011:759 JLINK_ReadMem (0x40008FFC, 0x0004 Bytes, ...) -- CPU_ReadMem(4 bytes @ 0x40008FFC) - Data: 01 00 00 00  returns 0x00 (0000ms, 0608ms total)
T3930 011:760 JLINK_IsHalted()  returns FALSE (0001ms, 0609ms total)
T3930 011:862 JLINK_IsHalted()  returns FALSE (0000ms, 0609ms total)
T3930 011:963 JLINK_IsHalted()  returns FALSE (0000ms, 0609ms total)
T3930 012:065 JLINK_IsHalted()  returns FALSE (0000ms, 0609ms total)
T3930 012:166 JLINK_IsHalted()  returns FALSE (0000ms, 0609ms total)
T48BC 012:267 JLINK_ReadMem (0x20000014, 0x0004 Bytes, ...) -- CPU_ReadMem(4 bytes @ 0x20000014) - Data: 99 01 00 00  returns 0x00 (0001ms, 0610ms total)
